;Version, 1, 0
;AC_Buff_PAD,;AC_TIA,;AC_VGA,;ZToptdB
;X, Y,;X, Y,;X, Y,;X, Y
;Re, Re,;Re, Re,;Re, Re,;Re, Re
;freq, Y,;freq, Y,;freq, Y,;freq, Y
;Hz, dB,;Hz, dB,;Hz, dB,;Hz, dB
100000000,0.7671188091164063,100000000,50.7770267214439,100000000,10.42474402254614,100000000,61.96888955310644
1099000000,0.7622837129301316,1099000000,50.72762149847346,1099000000,10.41252657749579,1099000000,61.90243178889937
2098000000,0.7591739672454769,2098000000,50.73330351632356,2098000000,10.42939093764595,2098000000,61.921868421215
3097000000,0.7612412428819918,3097000000,50.75041435569402,3097000000,10.45149174681746,3097000000,61.96314734539346
4096000000,0.7674547062390403,4096000000,50.77583396281852,4096000000,10.47849809014171,4096000000,62.02178675919927
5095000000,0.7774464533964496,5095000000,50.80870248804377,5095000000,10.51252314255428,5095000000,62.0986720839945
6094000000,0.790597900497081,6094000000,50.8479038918875,6094000000,10.5541305545698,6094000000,62.19263234695438
7093000000,0.806927887775278,7093000000,50.89200060735563,7093000000,10.60282922304919,7093000000,62.3017577181801
8092000000,0.8265018944048785,8092000000,50.93942595428322,8092000000,10.65955335893371,8092000000,62.42548120762181
9091000000,0.8496248929284977,9091000000,50.98843077746846,9091000000,10.72301129135028,9091000000,62.56106696174723
10090000000,0.8762883171847157,10090000000,51.0370106422636,10090000000,10.79285762650046,10090000000,62.70615658594878
11089000000,0.9062186418350073,11089000000,51.08289685670879,11089000000,10.86956544687121,11089000000,62.858680945415
12088000000,0.9396925903614332,12088000000,51.12349074504921,12088000000,10.95210250165619,12088000000,63.01528583706683
13087000000,0.97624377377265,13087000000,51.15587298242648,13087000000,11.04243847908665,13087000000,63.17455523528578
14086000000,1.016549442491674,14086000000,51.17687595728088,14086000000,11.13719744274858,14086000000,63.33062284252114
15085000000,1.060446311923549,15085000000,51.18325670556554,15085000000,11.23744151917117,15085000000,63.48114453666027
16084000000,1.108001423006259,16084000000,51.17173997436129,16084000000,11.3428895222676,16084000000,63.62263091963516
17083000000,1.159305688504441,17083000000,51.1390088152128,17083000000,11.45296657770719,17083000000,63.75128108142442
18082000000,1.214457700993453,18082000000,51.08182112990615,18082000000,11.56671872906921,18082000000,63.8629975599688
19081000000,1.273658850086076,19081000000,50.99762293030614,19081000000,11.68470196719445,19081000000,63.95598374758669
20080000000,1.337078131664757,20080000000,50.88392564294021,20080000000,11.80752785948922,20080000000,64.02853163409419
21079000000,1.404846293099221,21079000000,50.73908876374701,21079000000,11.93422753385834,21079000000,64.07816259070458
22078000000,1.477093281325766,22078000000,50.56230198972439,22078000000,12.06413077513453,22078000000,64.10352604618468
23077000000,1.553965142096395,23077000000,50.35367618784603,23077000000,12.19650072834286,23077000000,64.10414205828529
24076000000,1.635654218407642,24076000000,50.11409786336499,24076000000,12.3306770056159,24076000000,64.08042908738852
25075000000,1.722285994836537,25075000000,49.8451992557377,25075000000,12.46581178205113,25075000000,64.03329703262537
26074000000,1.813973762309404,26074000000,49.54900020340114,26074000000,12.60069143032769,26074000000,63.96366539603824
27073000000,1.910922550941694,27073000000,49.22800349612476,27073000000,12.73341521705348,27073000000,63.87234126411994
28072000000,2.013305999781153,28072000000,48.88503598442516,28072000000,12.86184344031541,28072000000,63.76018542452172
29071000000,2.121289875097491,29071000000,48.52302193848534,29071000000,12.98319230391335,29071000000,63.62750411749617
30070000000,2.235004391897727,30070000000,48.14504348621092,30070000000,13.09393015327711,30070000000,63.47397803138576
31069000000,2.354559555207147,31069000000,47.75409590798113,31069000000,13.18978242318411,31069000000,63.29843788637238
32068000000,2.480029120200564,32068000000,47.35292393696366,32068000000,13.2659441709626,32068000000,63.09889722812683
33067000000,2.611516185882804,33067000000,46.9437388025044,33067000000,13.31707753813912,33067000000,62.87233252652633
34066000000,2.749152815133724,34066000000,46.52857979975175,34066000000,13.33719229244745,34066000000,62.61492490733293
35065000000,2.893032885525675,35065000000,46.10938671173127,35065000000,13.31930556816501,35065000000,62.32172516542195
36064000000,3.043194652080285,36064000000,45.68800359729831,36064000000,13.25705545332657,36064000000,61.98825370270517
37063000000,3.199594078318257,37063000000,45.26607819537428,37063000000,13.14280581709501,37063000000,61.60847809078756
38062000000,3.362050090374777,38062000000,44.84533535335593,38062000000,12.96973132017222,38062000000,61.17711676390292
39061000000,3.529869909817931,39061000000,44.42764954631473,39061000000,12.73412055864262,39061000000,60.69164001477528
40060000000,3.701231785938448,40060000000,44.01425984739867,40060000000,12.43321096660331,40060000000,60.14870259994042
41059000000,3.873674237856551,41059000000,43.60395000517126,41059000000,12.06568244677853,41059000000,59.54330668980633
42058000000,4.045863349159043,42058000000,43.19345661457006,42058000000,11.63237564108626,42058000000,58.87169560481536
43057000000,4.218842399335577,43057000000,42.78238867436735,43057000000,11.14130563522223,43057000000,58.14253670892516
44056000000,4.392909989511483,44056000000,42.37364654396372,44056000000,10.60250967358435,44056000000,57.36906620705956
45055000000,4.566635411845567,45055000000,41.96965501056502,45055000000,10.02504047913003,45055000000,56.56133090154061
46054000000,4.73829629468158,46054000000,41.57278690313032,46054000000,9.417705504404102,46054000000,55.72878870221601
47053000000,4.904691463718325,47053000000,41.18430979013056,47053000000,8.789880263809369,47053000000,54.87888151765826
48052000000,5.062836215398216,48052000000,40.80372710209392,48052000000,8.150847207627434,48052000000,54.01741052511957
49051000000,5.209445601411695,49051000000,40.42985331038362,49051000000,7.509407235466792,49051000000,53.1487061472621
50050000000,5.341008018947508,50050000000,40.06125468049817,50050000000,6.873710053978636,50050000000,52.2759727534243
51049000000,5.4538118814028,51049000000,39.69679843216754,51049000000,6.251586700197548,51049000000,51.40219701376789
52048000000,5.544066205949277,52048000000,39.33579272963888,52048000000,5.650092405631023,52048000000,50.52995134121917
53047000000,5.608059227628972,53047000000,38.97799554651931,53047000000,5.075544123633225,53047000000,49.66159889778151
54046000000,5.642367093960301,54046000000,38.62339874737496,54046000000,4.533318451235145,54046000000,48.79908429257041
55045000000,5.644118277193018,55045000000,38.27211849037052,55045000000,4.0277395513061,55045000000,47.94397631886963
56044000000,5.611091244147425,56044000000,37.92427188432909,56044000000,3.561947047898643,56044000000,47.09731017637515
57043000000,5.541802171826821,57043000000,37.58000050218171,57043000000,3.137870455057124,57043000000,46.25967312906566
58042000000,5.435725035786623,58042000000,37.23943657692929,58042000000,2.756175140273568,58042000000,45.43133675298947
59041000000,5.293383199874367,59041000000,36.90266070597957,59041000000,2.416277002899486,59041000000,44.61232090875342
60040000000,5.11617972652117,60040000000,36.5697530620348,60040000000,2.116418830840063,60040000000,43.80235161939603
61039000000,4.906248654563099,61039000000,36.24078984951803,61039000000,1.85392401579083,61039000000,43.00096251987195
62038000000,4.666226232195628,62038000000,35.91584880675794,62038000000,1.62535029975148,62038000000,42.20742533870506
63037000000,4.399113532306893,63037000000,35.59500488942251,63037000000,1.426738102560241,63037000000,41.42085652428965
64036000000,4.108145355983063,64036000000,35.2783314109565,64036000000,1.253823047912021,64036000000,40.64029981485159
65035000000,3.79664404259469,65035000000,34.96591247587829,65035000000,1.102227889757259,65035000000,39.86478440823024
66034000000,3.467882584113164,66034000000,34.65782532853229,66034000000,0.9676618648892744,66034000000,39.09336977753473
67033000000,3.124978304782868,67033000000,34.35418732352612,67033000000,0.8460763303786337,67033000000,38.32524195868762
68032000000,2.770835336822915,68032000000,34.05509511048226,68032000000,0.7337707105095024,68032000000,37.55970115781467
69031000000,2.408072103984016,69031000000,33.76067741527014,69031000000,0.6274842140031571,69031000000,36.79623373325731
70030000000,2.039035412640697,70030000000,33.47106085518408,70030000000,0.5244436109225888,70030000000,36.03453987874737
71029000000,1.665730339488956,71029000000,33.1863541073362,71029000000,0.422389646497778,71029000000,35.27447409332294
72028000000,1.290376925063985,72028000000,32.9067225809412,72028000000,0.319559847661688,72028000000,34.51665935366687
73027000000,0.9154679608105485,73027000000,32.63225627965546,73027000000,0.2146373080796628,73027000000,33.76236154854567
74026000000,0.5441604880945697,74026000000,32.36327518653265,74026000000,0.1067023174922341,74026000000,33.01413799211945
75025000000,0.18041377090899,75025000000,32.09992424300981,75025000000,-0.00487110043991973,75025000000,32.27546691347889
76024000000,-0.1722506191891141,76024000000,31.84233875768611,76024000000,-0.1206678596073409,76024000000,31.54942027888965
77023000000,-0.5129217580987215,77023000000,31.59059828766574,77023000000,-0.2411762222718835,77023000000,30.83650030729514
78022000000,-0.8448804276431383,78022000000,31.3445165857147,78022000000,-0.3668232856615841,78022000000,30.13281287240998
79021000000,-1.171648411059059,79021000000,31.10371477968588,79021000000,-0.4977045267352,79021000000,29.43436184189162
80020000000,-1.495408365633133,80020000000,30.86847826781153,80020000000,-0.633457693404081,80020000000,28.73961220877431
81019000000,-1.816245087422511,81019000000,30.63836453960881,81019000000,-0.7736252070455455,81019000000,28.04849424514075
82018000000,-2.133249886313338,82018000000,30.41338312467758,82018000000,-0.917792497948351,82018000000,27.3623407404159
83017000000,-2.445415655504273,83017000000,30.19347113622548,83017000000,-1.065611601542563,83017000000,26.68244387917865
84016000000,-2.752155961041661,84016000000,29.9785436711641,84016000000,-1.21680068686241,84016000000,26.00958702326002
85015000000,-3.053165828287236,85015000000,29.76850125228784,85015000000,-1.371094443982887,85015000000,25.34424098001772
86014000000,-3.348402765306515,86014000000,29.56323251545749,86014000000,-1.528319329051735,86014000000,24.68651042109924
87013000000,-3.638168993371444,87013000000,29.36265513087317,87013000000,-1.688167634408777,87013000000,24.03631850309295
88012000000,-3.922737743076333,88012000000,29.16656337866183,88012000000,-1.850498703392099,88012000000,23.3933269321934
89011000000,-4.202953536568982,89011000000,28.97499908638142,89011000000,-2.015090022750425,89011000000,22.75695552706201
90010000000,-4.479658640266476,90010000000,28.78776049078537,90010000000,-2.18182148291246,90010000000,22.12628036760644
91009000000,-4.754048686151439,91009000000,28.60477606773591,91009000000,-2.350545335393796,91009000000,21.50018204619068
92008000000,-5.027506143398402,92008000000,28.42593393580501,92008000000,-2.521150431602654,92008000000,20.87727736080396
93007000000,-5.301571186205507,93007000000,28.25113274809897,93007000000,-2.69356200650857,93007000000,20.2559995553849
94006000000,-5.577019443060762,94006000000,28.08025173492502,94006000000,-2.86783068566733,94006000000,19.63540160619693
95005000000,-5.856158498160553,95005000000,27.91315280497342,95005000000,-3.043851709112985,95005000000,19.01314259769989
96004000000,-6.138385181820694,96004000000,27.74967152474687,96004000000,-3.221773816653669,96004000000,18.38951252627251
97003000000,-6.423134707832259,97003000000,27.58960417472573,97003000000,-3.401639706062093,97003000000,17.76482976083138
98002000000,-6.708645488459432,98002000000,27.43273467786667,98002000000,-3.583419715975234,98002000000,17.140669473432
99001000000,-6.993122074213373,99001000000,27.27884050317227,99001000000,-3.766989071509204,99001000000,16.5187293574497
100000000000,-7.273865068633034,100000000000,27.12772864576871,100000000000,-3.952274876140892,100000000000,15.90158870099478
