;Version, 1, 0
;AC_Buff_PAD,;AC_TIA,;AC_VGA,;AC_VGA_Buf,;Norm_AC_Buff,;Norm_TIA,;Norm_VGA,;ZToptdB,;ZToptdB_Norm
;X, Y,;X, Y,;X, Y,;X, Y,;X, Y,;X, Y,;X, Y,;X, Y,;X, Y
;Re, Re,;Re, Re,;Re, Re,;Re, Re,;Re, Re,;Re, Re,;Re, Re,;Re, Re,;Re, Re
;freq, Y,;freq, Y,;freq, Y,;freq, Y,;freq, Y,;freq, Y,;freq, Y,;freq, Y,;freq, Y
;Hz, dB,;Hz, dB,;Hz, dB,;Hz, dB,;Hz, dB,;Hz, dB,;Hz, dB,;Hz, dB,;Hz, dB
10000,0.4604560647624958,10000,7.025823030912763,10000,11.08764442237209,10000,-0.2184524601201635,10000,-2.16839224580703,10000,-43.73709537259578,10000,-2.129936506512538,10000,18.57392351804734,10000,-42.94817996916017
10232.92992280754,0.4604560409027018,10232.92992280754,7.225175989639192,10232.92992280754,11.08764442159522,10232.92992280754,-0.2184524581645334,10232.92992280754,-2.168392269666824,10232.92992280754,-43.53774241386935,10232.92992280754,-2.129936507289406,10232.92992280754,18.77327645213711,10232.92992280754,-42.74882703507039
10471.285480509,0.4604560177144345,10471.285480509,7.424557002866247,10471.285480509,11.08764442078159,10471.285480509,-0.2184524561168339,10471.285480509,-2.168392292855091,10471.285480509,-43.3383614006423,10471.285480509,-2.129936508103038,10471.285480509,18.97265744136227,10471.285480509,-42.54944604584524
10715.19305237606,0.4604559951491761,10715.19305237606,7.623964769374614,10715.19305237606,11.08764441992956,10715.19305237606,-0.2184524539726485,10715.19305237606,-2.16839231542035,10715.19305237606,-43.13895363413393,10715.19305237606,-2.129936508955064,10715.19305237606,19.17206518445336,10715.19305237606,-42.35003830275415
10964.78196143185,0.4604559731599119,10964.78196143185,7.82339804368315,10964.78196143185,11.08764441903748,10964.78196143185,-0.2184524517273039,10964.78196143185,-2.168392337409614,10964.78196143185,-42.93952035982539,10964.78196143185,-2.129936509847145,10964.78196143185,19.37149843588054,10964.78196143185,-42.15060505132696
11220.18454301963,0.460455951700436,11220.18454301963,8.022855633464555,11220.18454301963,11.08764441810321,11220.18454301963,-0.2184524493761453,11220.18454301963,-2.16839235886909,11220.18454301963,-42.74006277004399,11220.18454301963,-2.129936510781416,11220.18454301963,19.5709560032682,11220.18454301963,-41.95114748393931
11481.53621496882,0.460455930725868,11481.53621496882,8.222336397120827,11481.53621496882,11.08764441712496,11481.53621496882,-0.2184524469142341,11481.53621496882,-2.168392379843658,11481.53621496882,-42.54058200638772,11481.53621496882,-2.129936511759663,11481.53621496882,19.77043674497166,11481.53621496882,-41.75166674223586
11748.97554939529,0.460455910192164,11748.97554939529,8.421839241420761,11748.97554939529,11.08764441610057,11748.97554939529,-0.2184524443362236,11748.97554939529,-2.168392400377362,11748.97554939529,-42.34107916208778,11748.97554939529,-2.129936512784058,11748.97554939529,19.9699395677135,11748.97554939529,-41.55216391949401
12022.64434617413,0.4604558900562145,12022.64434617413,8.621363119246643,12022.64434617413,11.08764441502787,12022.64434617413,-0.2184524416367083,12022.64434617413,-2.168392420513311,12022.64434617413,-42.1415552842619,12022.64434617413,-2.129936513856761,12022.64434617413,20.16946342433073,12022.64434617413,-41.35264006287679
12302.68770812381,0.4604558702758172,12302.68770812381,8.820907027474128,12302.68770812381,11.08764441390451,12302.68770812381,-0.2184524388101032,12302.68770812381,-2.168392440293708,12302.68770812381,-41.94201137603442,12302.68770812381,-2.129936514980116,12302.68770812381,20.36900731165446,12302.68770812381,-41.15309617555305
12589.25411794167,0.4604558508092783,12589.25411794167,9.020470004845315,12589.25411794167,11.08764441272814,12589.25411794167,-0.2184524358502117,12589.25411794167,-2.168392459760248,12589.25411794167,-41.74244839866323,12589.25411794167,-2.129936516156491,12589.25411794167,20.56857026838273,12589.25411794167,-40.95353321882478
12882.49551693133,0.4604558316157252,12882.49551693133,9.220051130049315,12882.49551693133,11.08764441149623,12882.49551693133,-0.2184524327508574,12882.49551693133,-2.1683924789538,12882.49551693133,-41.54286727345923,12882.49551693133,-2.129936517388394,12882.49551693133,20.76815137316127,12882.49551693133,-40.75395211404624
13182.56738556407,0.4604558126547356,13182.56738556407,9.419649519683453,13182.56738556407,11.08764441020639,13182.56738556407,-0.2184524295053196,13182.56738556407,-2.16839249791479,13182.56738556407,-41.34326888382509,13182.56738556407,-2.129936518678242,13182.56738556407,20.96774974254458,13182.56738556407,-40.55435374466293
13489.62882591653,0.4604557938864389,13489.62882591653,9.619264326612967,13489.62882591653,11.08764440885557,13489.62882591653,-0.2184524261069047,13489.62882591653,-2.168392516683087,13489.62882591653,-41.14365407689557,13489.62882591653,-2.129936520029057,13489.62882591653,21.16736452935498,13489.62882591653,-40.35473895785253
13803.84264602884,0.460455775271214,13803.84264602884,9.818894738074594,13803.84264602884,11.08764440744104,13803.84264602884,-0.2184524225483246,13803.84264602884,-2.168392535298312,13803.84264602884,-40.94402366543395,13803.84264602884,-2.129936521443584,13803.84264602884,21.36699492078685,13803.84264602884,-40.15510856642065
14125.37544622754,0.4604557567697667,14125.37544622754,10.01853997404178,14125.37544622754,11.08764440595978,14125.37544622754,-0.2184524188220271,14125.37544622754,-2.168392553799759,14125.37544622754,-40.74437842946676,14125.37544622754,-2.129936522924844,14125.37544622754,21.56664013677133,14125.37544622754,-39.95546335043618
14454.39770745927,0.4604557383432309,14454.39770745927,10.21819928557609,14454.39770745927,11.08764440440853,14454.39770745927,-0.2184524149201821,14454.39770745927,-2.168392572226295,14454.39770745927,-40.54471911793246,14454.39770745927,-2.129936524476102,14454.39770745927,21.76629942832784,14454.39770745927,-39.75580405887966
14791.08388168207,0.4604557199525963,14791.08388168207,10.41787195329956,14791.08388168207,11.08764440278417,14791.08388168207,-0.2184524108343772,14791.08388168207,-2.168392590616929,14791.08388168207,-40.34504645020898,14791.08388168207,-2.129936526100453,14791.08388168207,21.96597207603633,14791.08388168207,-39.55613141117118
15135.61248436208,0.4604557015590351,15135.61248436208,10.6175572858981,15135.61248436208,11.08764440108313,15135.61248436208,-0.2184524065559815,15135.61248436208,-2.168392609010491,15135.61248436208,-40.14536111761043,15135.61248436208,-2.129936527801497,15135.61248436208,22.16565738854028,15135.61248436208,-39.35644609866723
15488.16618912481,0.4604556831238533,15488.16618912481,10.81725461858179,15488.16618912481,11.08764439930193,15488.16618912481,-0.2184524020759782,15488.16618912481,-2.168392627445673,15488.16618912481,-39.94566378492676,15488.16618912481,-2.1299365295827,15488.16618912481,22.36535470100756,15488.16618912481,-39.15674878619994
15848.93192461113,0.46045566460785,15848.93192461113,11.01696331187048,15848.93192461113,11.08764439743652,15848.93192461113,-0.2184523973848967,15848.93192461113,-2.168392645961676,15848.93192461113,-39.74595509163806,15848.93192461113,-2.129936531448106,15848.93192461113,22.56506337391485,15848.93192461113,-38.95704011329266
16218.10097358929,0.4604556459721172,16218.10097358929,11.21668275011942,16218.10097358929,11.08764439548308,16218.10097358929,-0.2184523924726592,16218.10097358929,-2.168392664597409,16218.10097358929,-39.54623565338913,16218.10097358929,-2.129936533401548,16218.10097358929,22.76478279157462,16218.10097358929,-38.75732069563289
16595.8690743756,0.460455627177037,16595.8690743756,11.41641234030076,16595.8690743756,11.08764439343739,16595.8690743756,-0.2184523873289953,16595.8690743756,-2.168392683392489,16595.8690743756,-39.34650606320778,16595.8690743756,-2.129936535447237,16595.8690743756,22.96451236091519,16595.8690743756,-38.55759112629232
16982.43652461743,0.4604556081830503,16982.43652461743,11.61615151073752,16982.43652461743,11.08764439129519,16982.43652461743,-0.218452381942856,16982.43652461743,-2.168392702386476,16982.43652461743,-39.14676689277103,16982.43652461743,-2.12993653758944,16982.43652461743,23.16425151021576,16982.43652461743,-38.35785197699175
17378.00828749374,0.4604555889499887,17378.00828749374,11.81589970992822,17378.00828749374,11.08764438905186,17378.00828749374,-0.2184523763028869,17378.00828749374,-2.168392721619537,17378.00828749374,-38.94701869358033,17378.00828749374,-2.129936539832771,17378.00828749374,23.36399968793006,17378.00828749374,-38.15810379927744
17782.79410038922,0.4604555694369907,17782.79410038922,12.01565640530448,17782.79410038922,11.08764438670254,17782.79410038922,-0.2184523703971166,17782.79410038922,-2.168392741132535,17782.79410038922,-38.74726199820407,17782.79410038922,-2.129936542182085,17782.79410038922,23.56375636144401,17782.79410038922,-37.9583471257635
18197.00858609982,0.4604555496027538,18197.00858609982,12.21542108226226,18197.00858609982,11.08764438424236,18197.00858609982,-0.2184523642130039,18197.00858609982,-2.168392760966772,18197.00858609982,-38.54749732124628,18197.00858609982,-2.129936544642266,18197.00858609982,23.76352101610738,18197.00858609982,-37.75858247110013
18620.87136662866,0.4604555294054544,18620.87136662866,12.41519324298087,18620.87136662866,11.08764438166592,18620.87136662866,-0.2184523577374748,18620.87136662866,-2.168392781164072,18620.87136662866,-38.34772516052767,18620.87136662866,-2.129936547218708,18620.87136662866,23.96329315405224,18620.87136662866,-37.55881033315526
19054.60717963246,0.4604555088022043,19054.60717963246,12.61497240543641,19054.60717963246,11.08764437896784,19054.60717963246,-0.218452350956762,19054.60717963246,-2.168392801767321,19054.60717963246,-38.14794599807213,19054.60717963246,-2.129936549916783,19054.60717963246,24.16307229320646,19054.60717963246,-37.35903119400105
19498.44599758044,0.4604554877494003,19498.44599758044,12.81475810225613,19498.44599758044,11.08764437614231,19498.44599758044,-0.2184523438564574,19498.44599758044,-2.168392822820126,19498.44599758044,-37.94816030125241,19498.44599758044,-2.129936552742318,19498.44599758044,24.36285796614784,19498.44599758044,-37.15924552105967
19952.62314968878,0.4604554662024218,19952.62314968878,13.01454987994063,19952.62314968878,11.08764437318338,19952.62314968878,-0.2184523364215289,19952.62314968878,-2.168392844367104,19952.62314968878,-37.74836852356791,19952.62314968878,-2.129936555701246,19952.62314968878,24.56264971932644,19952.62314968878,-36.95945376788107
20417.37944669528,0.4604554441156812,20417.37944669528,13.21434729777057,20417.37944669528,11.08764437008457,20417.37944669528,-0.2184523286362244,20417.37944669528,-2.168392866453845,20417.37944669528,-37.54857110573797,20417.37944669528,-2.129936558800061,20417.37944669528,24.76244711197082,20417.37944669528,-36.75965637523669
20892.96130854038,0.4604554214422772,20892.96130854038,13.41414992693898,20892.96130854038,11.08764436683943,20892.96130854038,-0.2184523204839703,20892.96130854038,-2.168392889127249,20892.96130854038,-37.34876847656956,20892.96130854038,-2.129936562045199,20892.96130854038,24.96224971522068,20892.96130854038,-36.55985377198682
21379.6208950223,0.4604553981342423,21379.6208950223,13.61395734954952,21379.6208950223,11.08764436344089,21379.6208950223,-0.2184523119475599,21379.6208950223,-2.168392912435284,21379.6208950223,-37.14896105395902,21379.6208950223,-2.129936565443741,21379.6208950223,25.16205711112465,21379.6208950223,-36.36004637608286
21877.61623949551,0.4604553741422334,21877.61623949551,13.81376915790092,21877.61623949551,11.08764435988167,21877.61623949551,-0.2184523030088253,21877.61623949551,-2.168392936427292,21877.61623949551,-36.94914924560762,21877.61623949551,-2.129936569002961,21877.61623949551,25.36186889192482,21877.61623949551,-36.16023459528269
22387.21138568337,0.4604553494152633,22387.21138568337,14.01358495353237,22387.21138568337,11.08764435615422,22387.21138568337,-0.2184522936488343,22387.21138568337,-2.168392961154262,22387.21138568337,-36.74933344997618,22387.21138568337,-2.129936572730408,22387.21138568337,25.56168465910185,22387.21138568337,-35.96041882810566
22908.67652767771,0.4604553239010278,22908.67652767771,14.21340434631393,22908.67652767771,11.08764435225064,22908.67652767771,-0.2184522838477171,22908.67652767771,-2.168392986668498,22908.67652767771,-36.54951405719461,22908.67652767771,-2.129936576633986,22908.67652767771,25.7615040224656,22908.67652767771,-35.76059946474192
23442.2881531992,0.4604552975452799,23442.2881531992,14.4132269537884,23442.2881531992,11.08764434816246,23442.2881531992,-0.2184522735846685,23442.2881531992,-2.168393013024246,23442.2881531992,-36.34969144972015,23442.2881531992,-2.129936580722168,23442.2881531992,25.96132659949614,23442.2881531992,-35.56077688771137
23988.32919019488,0.4604552702923336,23988.32919019488,14.61305240028171,23988.32919019488,11.08764434388103,23988.32919019488,-0.2184522628379469,23988.32919019488,-2.168393040277192,23988.32919019488,-36.14986600322683,23988.32919019488,-2.129936585003597,23988.32919019488,26.16115201445507,23988.32919019488,-35.36095147275244
24547.08915685028,0.4604552420842931,24547.08915685028,14.81288031602376,24547.08915685028,11.08764433939696,24547.08915685028,-0.2184522515847564,24547.08915685028,-2.168393068485233,24547.08915685028,-35.95003808748478,24547.08915685028,-2.129936589487668,24547.08915685028,26.36097989750501,24547.08915685028,-35.1611235897025
25118.86431509577,0.460455212861589,25118.86431509577,15.0127103365663,25118.86431509577,11.08764433470094,25118.86431509577,-0.2184522398012281,25118.86431509577,-2.168393097707937,25118.86431509577,-35.75020806694225,25118.86431509577,-2.129936594183691,25118.86431509577,26.56080988412882,25118.86431509577,-34.96129360307869
25703.95782768861,0.4604551825618827,25703.95782768861,15.21254210179222,25703.95782768861,11.08764432978257,25703.95782768861,-0.2184522274623799,25703.95782768861,-2.168393128007643,25703.95782768861,-35.55037630171632,25703.95782768861,-2.129936599102059,25703.95782768861,26.76064161413667,25703.95782768861,-34.76146187307084
26302.67991895379,0.4604551511211237,26302.67991895379,15.41237525537913,26302.67991895379,11.08764432463162,26302.67991895379,-0.2184522145419923,26302.67991895379,-2.168393159448402,26302.67991895379,-35.35054314812941,26302.67991895379,-2.129936604253011,26302.67991895379,26.96047473113187,26302.67991895379,-34.56162875607563
26915.34803926912,0.4604551184726804,26915.34803926912,15.61220944382026,26915.34803926912,11.08764431923684,26915.34803926912,-0.21845220101268,26915.34803926912,-2.168393192096845,26915.34803926912,-35.15070895968828,26915.34803926912,-2.129936609647787,26915.34803926912,27.16030888152979,26915.34803926912,-34.36179460567772
27542.28703338163,0.4604550845471614,27542.28703338163,15.81204431590707,27542.28703338163,11.08764431358669,27542.28703338163,-0.2184521868457704,27542.28703338163,-2.168393226022364,27542.28703338163,-34.95087408760148,27542.28703338163,-2.12993661529794,27542.28703338163,27.36014371404092,27542.28703338163,-34.16195977316659
28183.8293126445,0.4604550492728194,28183.8293126445,16.01187952176181,28183.8293126445,11.08764430766897,28183.8293126445,-0.218452172011209,28183.8293126445,-2.168393261296706,28183.8293126445,-34.75103888174674,28183.8293126445,-2.129936621215659,28183.8293126445,27.55997887870359,28183.8293126445,-33.96212460850391
28840.31503126602,0.4604550125746494,28840.31503126602,16.21171471232165,28840.31503126602,11.08764430147102,28840.31503126602,-0.2184521564774958,28840.31503126602,-2.168393297994876,28840.31503126602,-34.55120369118688,28840.31503126602,-2.12993662741361,28840.31503126602,27.75981402636732,28840.31503126602,-33.76228946084019
29512.09226666381,0.4604549743750876,29512.09226666381,16.41154953837931,29512.09226666381,11.08764429497952,29512.09226666381,-0.2184521402117256,29512.09226666381,-2.168393336194438,29512.09226666381,-34.35136886512923,29512.09226666381,-2.129936633905105,29512.09226666381,27.95964880773392,29512.09226666381,-33.56245467947359
30199.51720402012,0.4604549345928499,30199.51720402012,16.61138365007277,30199.51720402012,11.08764428818033,30199.51720402012,-0.2184521231793675,30199.51720402012,-2.168393375976676,30199.51720402012,-34.15153475343577,30199.51720402012,-2.129936640704297,30199.51720402012,28.15948287284595,30199.51720402012,-33.36262061436156
30902.95432513586,0.4604548931436687,30902.95432513586,16.81121669594868,30902.95432513586,11.08764428105906,30902.95432513586,-0.2184521053443042,30902.95432513586,-2.168393417425857,30902.95432513586,-33.95170170755986,30902.95432513586,-2.129936647825572,30902.95432513586,28.3593158701514,30902.95432513586,-33.16278761705611
31622.77660168374,0.4604548499397448,31622.77660168374,17.01104832229714,31622.77660168374,11.08764427360016,31622.77660168374,-0.2184520866687068,31622.77660168374,-2.168393460629781,31622.77660168374,-33.7518700812114,31622.77660168374,-2.129936655284469,31622.77660168374,28.55914744583705,31622.77660168374,-32.96295604137046
32359.36569296278,0.4604548048892568,32359.36569296278,17.21087817250753,32359.36569296278,11.08764426578752,32359.36569296278,-0.2184520671129823,32359.36569296278,-2.168393505680269,32359.36569296278,-33.55204023100102,32359.36569296278,-2.12993666309711,32359.36569296278,28.7589772431843,32359.36569296278,-32.7631262440232
33113.11214825905,0.460454757896831,33113.11214825905,17.41070588612607,33113.11214825905,11.08764425760439,33113.11214825905,-0.2184520466356151,33113.11214825905,-2.168393552672695,33113.11214825905,-33.35221251738247,33113.11214825905,-2.129936671280241,33113.11214825905,28.95880490162729,33113.11214825905,-32.56329858558022
33884.4156139202,0.4604547088626438,33884.4156139202,17.61053109822694,33884.4156139202,11.08764424903299,33884.4156139202,-0.2184520251931872,33884.4156139202,-2.168393601706882,33884.4156139202,-33.1523873052816,33884.4156139202,-2.129936679851642,33884.4156139202,29.15863005612257,33884.4156139202,-32.36347343108494
34673.6850452531,0.4604546576827762,34673.6850452531,17.81035343857264,34673.6850452531,11.08764424005481,34673.6850452531,-0.2184520027401909,34673.6850452531,-2.16839365288675,34673.6850452531,-32.9525649649359,34673.6850452531,-2.129936688829819,34673.6850452531,29.35845233631023,34673.6850452531,-32.16365115089728
35481.33892335748,0.4604546042487254,35481.33892335748,18.01017253095255,35481.33892335748,11.08764423065033,35481.33892335748,-0.2184519792290547,35481.33892335748,-2.1683937063208,35481.33892335748,-32.75274587255599,35481.33892335748,-2.129936698234301,35481.33892335748,29.5582713658516,35481.33892335748,-31.96383212135591
36307.80547701006,0.4604545484471181,36307.80547701006,18.20998799221847,36307.80547701006,11.08764422079925,36307.80547701006,-0.2184519546098685,36307.80547701006,-2.168393762122408,36307.80547701006,-32.55293041129008,36307.80547701006,-2.129936708085376,36307.80547701006,29.75808676146483,36307.80547701006,-31.76401672574267
37153.52290971718,0.4604544901595763,37153.52290971718,18.40979943159295,37153.52290971718,11.08764421048019,37153.52290971718,-0.2184519288304467,37153.52290971718,-2.168393820409949,37153.52290971718,-32.35311897191559,37153.52290971718,-2.129936718404435,37153.52290971718,29.95789813223272,37153.52290971718,-31.56420535497479
38018.93963205605,0.4604544292625112,38018.93963205605,18.60960644981431,38018.93963205605,11.08764419967073,38018.93963205605,-0.2184519018360782,38018.93963205605,-2.168393881307014,38018.93963205605,-32.15331195369424,38018.93963205605,-2.129936729213897,38018.93963205605,30.15770507874755,38018.93963205605,-31.36439840845996
